T19EE4 000:009.175   SEGGER J-Link V7.22b Log File
T19EE4 000:009.332   DLL Compiled: Jun 17 2021 17:22:49
T19EE4 000:009.348   Logging started @ 2024-03-12 01:39
T19EE4 000:009.362 - 9.369ms
T19EE4 000:009.384 JLINK_SetWarnOutHandler(...)
T19EE4 000:009.400 - 0.023ms
T19EE4 000:009.415 JLINK_OpenEx(...)
T19EE4 000:010.923   Firmware: J-Link V9 compiled May  7 2021 16:26:12
T19EE4 000:011.349   Firmware: J-Link V9 compiled May  7 2021 16:26:12
T19EE4 000:011.546   Decompressing FW timestamp took 138 us
T19EE4 000:019.116   Hardware: V9.40
T19EE4 000:019.137   S/N: 69407300
T19EE4 000:019.151   OEM: SEGGER
T19EE4 000:019.162   Feature(s): RDI, GDB, FlashDL, FlashBP, JFlash
T19EE4 000:020.179   TELNET listener socket opened on port 19021
T19EE4 000:020.338   WEBSRV Starting webserver
T19EE4 000:020.429   WEBSRV Webserver running on local port 19080
T19EE4 000:020.440 - 11.028ms returns "O.K."
T19EE4 000:020.452 JLINK_GetEmuCaps()
T19EE4 000:020.459 - 0.011ms returns 0xB9FF7BBF
T19EE4 000:020.471 JLINK_TIF_GetAvailable(...)
T19EE4 000:020.602 - 0.137ms
T19EE4 000:020.614 JLINK_SetErrorOutHandler(...)
T19EE4 000:020.621 - 0.010ms
T19EE4 000:020.642 JLINK_ExecCommand("ProjectFile = "D:\代码\凌欧\月立\发样程序\月立220_版本_不可修改__已改电机库_1_30出差调试程序\JLinkSettings.ini"", ...). 
T19EE4 000:028.959   Device "CORTEX-M0" selected.
T19EE4 000:029.255 - 8.618ms returns 0x00
T19EE4 000:037.573 JLINK_ExecCommand("Device = LKS32MC038Y6P8", ...). 
T19EE4 000:043.615   Device "CORTEX-M0" selected.
T19EE4 000:043.914 - 6.325ms returns 0x00
T19EE4 000:043.930 JLINK_GetHardwareVersion()
T19EE4 000:043.937 - 0.010ms returns 94000
T19EE4 000:043.944 JLINK_GetDLLVersion()
T19EE4 000:043.951 - 0.010ms returns 72202
T19EE4 000:043.958 JLINK_GetOEMString(...)
T19EE4 000:043.966 JLINK_GetFirmwareString(...)
T19EE4 000:043.976 - 0.013ms
T19EE4 000:051.384 JLINK_GetDLLVersion()
T19EE4 000:051.403 - 0.022ms returns 72202
T19EE4 000:051.411 JLINK_GetCompileDateTime()
T19EE4 000:051.418 - 0.010ms
T19EE4 000:053.872 JLINK_GetFirmwareString(...)
T19EE4 000:053.892 - 0.022ms
T19EE4 000:056.180 JLINK_GetHardwareVersion()
T19EE4 000:056.199 - 0.022ms returns 94000
T19EE4 000:059.427 JLINK_GetSN()
T19EE4 000:059.448 - 0.023ms returns 69407300
T19EE4 000:061.205 JLINK_GetOEMString(...)
T19EE4 000:064.485 JLINK_TIF_Select(JLINKARM_TIF_SWD)
T19EE4 000:065.584 - 1.105ms returns 0x00
T19EE4 000:065.596 JLINK_HasError()
T19EE4 000:065.612 JLINK_SetSpeed(3000)
T19EE4 000:065.720 - 0.113ms
T19EE4 000:065.730 JLINK_GetId()
T19EE4 000:068.203   Found SW-DP with ID 0x0BB11477
T19EE4 000:075.693   DPIDR: 0x0BB11477
T19EE4 000:077.326   Scanning AP map to find all available APs
T19EE4 000:079.654   AP[1]: Stopped AP scan as end of AP map has been reached
T19EE4 000:081.253   AP[0]: AHB-AP (IDR: 0x04770021)
T19EE4 000:144.349   Iterating through AP map to find AHB-AP to use
T19EE4 000:149.656   AP[0]: Core found
T19EE4 000:152.776   AP[0]: AHB-AP ROM base: 0xE00FF000
T19EE4 000:157.264   CPUID register: 0x410CC200. Implementer code: 0x41 (ARM)
T19EE4 000:160.409   Found Cortex-M0 r0p0, Little endian.
T19EE4 000:261.937   -- Max. mem block: 0x00010E60
T19EE4 000:262.184   CPU_ReadMem(4 bytes @ 0xE000EDF0)
T19EE4 000:262.614   CPU_WriteMem(4 bytes @ 0xE000EDF0)
T19EE4 000:262.997   CPU_ReadMem(4 bytes @ 0xE0002000)
T19EE4 000:274.742   FPUnit: 2 code (BP) slots and 0 literal slots
T19EE4 000:274.775   CPU_ReadMem(4 bytes @ 0xE000EDFC)
T19EE4 000:275.081   CPU_WriteMem(4 bytes @ 0xE000EDFC)
T19EE4 000:275.413   CPU_ReadMem(4 bytes @ 0xE0001000)
T19EE4 000:275.708   CPU_WriteMem(4 bytes @ 0xE0001000)
T19EE4 000:277.872   CoreSight components:
T19EE4 000:279.575   ROMTbl[0] @ E00FF000
T19EE4 000:279.606   CPU_ReadMem(64 bytes @ 0xE00FF000)
T19EE4 000:280.430   CPU_ReadMem(32 bytes @ 0xE000EFE0)
T19EE4 000:283.588   ROMTbl[0][0]: E000E000, CID: B105E00D, PID: 000BB008 SCS
T19EE4 000:283.612   CPU_ReadMem(32 bytes @ 0xE0001FE0)
T19EE4 000:286.138   ROMTbl[0][1]: E0001000, CID: B105E00D, PID: 000BB00A DWT
T19EE4 000:286.191   CPU_ReadMem(32 bytes @ 0xE0002FE0)
T19EE4 000:288.470   ROMTbl[0][2]: E0002000, CID: B105E00D, PID: 000BB00B FPB
T19EE4 000:288.706 - 222.980ms returns 0x0BB11477
T19EE4 000:288.719 JLINK_GetDLLVersion()
T19EE4 000:288.726 - 0.010ms returns 72202
T19EE4 000:288.735 JLINK_CORE_GetFound()
T19EE4 000:288.742 - 0.010ms returns 0x60000FF
T19EE4 000:288.750 JLINK_GetDebugInfo(0x100 = JLINKARM_ROM_TABLE_ADDR_INDEX)
T19EE4 000:288.758   Value=0xE00FF000
T19EE4 000:288.768 - 0.020ms returns 0
T19EE4 000:290.982 JLINK_GetDebugInfo(0x100 = JLINKARM_ROM_TABLE_ADDR_INDEX)
T19EE4 000:291.000   Value=0xE00FF000
T19EE4 000:291.010 - 0.031ms returns 0
T19EE4 000:291.018 JLINK_GetDebugInfo(0x101 = JLINKARM_DEBUG_INFO_ETM_ADDR_INDEX)
T19EE4 000:291.025   Value=0x00000000
T19EE4 000:291.034 - 0.020ms returns 0
T19EE4 000:291.048 JLINK_ReadMemEx(0xE0041FF0, 0x10 Bytes, Flags = 0x02000004)
T19EE4 000:291.069   CPU_ReadMem(16 bytes @ 0xE0041FF0)
T19EE4 000:291.507   Data:  00 00 00 00 00 00 00 00 00 00 00 00 00 00 00 00
T19EE4 000:291.518 - 0.474ms returns 16 (0x10)
T19EE4 000:291.526 JLINK_GetDebugInfo(0x102 = JLINKARM_DEBUG_INFO_MTB_ADDR_INDEX)
T19EE4 000:291.533   Value=0x00000000
T19EE4 000:291.543 - 0.019ms returns 0
T19EE4 000:291.550 JLINK_GetDebugInfo(0x103 = JLINKARM_DEBUG_INFO_TPIU_ADDR_INDEX)
T19EE4 000:291.557   Value=0x00000000
T19EE4 000:291.566 - 0.019ms returns 0
T19EE4 000:291.574 JLINK_ReadMemEx(0xE0040FF0, 0x10 Bytes, Flags = 0x02000004)
T19EE4 000:291.582   CPU_ReadMem(16 bytes @ 0xE0040FF0)
T19EE4 000:292.035   Data:  00 00 00 00 00 00 00 00 00 00 00 00 00 00 00 00
T19EE4 000:292.046 - 0.475ms returns 16 (0x10)
T19EE4 000:292.053 JLINK_GetDebugInfo(0x104 = JLINKARM_DEBUG_INFO_ITM_ADDR_INDEX)
T19EE4 000:292.060   Value=0xE0000000
T19EE4 000:292.070 - 0.019ms returns 0
T19EE4 000:292.077 JLINK_GetDebugInfo(0x105 = JLINKARM_DEBUG_INFO_DWT_ADDR_INDEX)
T19EE4 000:292.084   Value=0xE0001000
T19EE4 000:292.094 - 0.019ms returns 0
T19EE4 000:292.101 JLINK_GetDebugInfo(0x106 = JLINKARM_DEBUG_INFO_FPB_ADDR_INDEX)
T19EE4 000:292.108   Value=0xE0002000
T19EE4 000:292.117 - 0.019ms returns 0
T19EE4 000:292.124 JLINK_GetDebugInfo(0x107 = JLINKARM_DEBUG_INFO_NVIC_ADDR_INDEX)
T19EE4 000:292.131   Value=0xE000E000
T19EE4 000:292.141 - 0.019ms returns 0
T19EE4 000:292.148 JLINK_GetDebugInfo(0x10C = JLINKARM_DEBUG_INFO_DBG_ADDR_INDEX)
T19EE4 000:292.155   Value=0xE000EDF0
T19EE4 000:292.164 - 0.019ms returns 0
T19EE4 000:292.172 JLINK_GetDebugInfo(0x01 = Unknown)
T19EE4 000:292.178   Value=0x00000000
T19EE4 000:292.188 - 0.019ms returns 0
T19EE4 000:292.195 JLINK_ReadMemU32(0xE000ED00, 0x1 Items)
T19EE4 000:292.203   CPU_ReadMem(4 bytes @ 0xE000ED00)
T19EE4 000:292.502   Data:  00 C2 0C 41
T19EE4 000:292.514   Debug reg: CPUID
T19EE4 000:292.524 - 0.332ms returns 1 (0x1)
T19EE4 000:292.532 JLINK_GetDebugInfo(0x10F = JLINKARM_DEBUG_INFO_HAS_CORTEX_M_SECURITY_EXT_INDEX)
T19EE4 000:292.539   Value=0x00000000
T19EE4 000:292.548 - 0.019ms returns 0
T19EE4 000:292.556 JLINK_HasError()
T19EE4 000:292.564 JLINK_SetResetType(JLINKARM_CM3_RESET_TYPE_NORMAL)
T19EE4 000:292.570 - 0.010ms returns JLINKARM_CM3_RESET_TYPE_NORMAL
T19EE4 000:292.578 JLINK_Reset()
T19EE4 000:292.593   CPU is running
T19EE4 000:292.604   CPU_WriteMem(4 bytes @ 0xE000EDF0)
T19EE4 000:292.978   CPU is running
T19EE4 000:292.989   CPU_WriteMem(4 bytes @ 0xE000EDFC)
T19EE4 000:295.004   Reset: Halt core after reset via DEMCR.VC_CORERESET.
T19EE4 000:299.111   Reset: Reset device via AIRCR.SYSRESETREQ.
T19EE4 000:299.134   CPU is running
T19EE4 000:299.145   CPU_WriteMem(4 bytes @ 0xE000ED0C)
T19EE4 000:351.851   CPU_ReadMem(4 bytes @ 0xE000EDF0)
T19EE4 000:352.172   CPU_ReadMem(4 bytes @ 0xE000EDF0)
T19EE4 000:352.581   CPU is running
T19EE4 000:352.596   CPU_WriteMem(4 bytes @ 0xE000EDF0)
T19EE4 000:352.980   CPU is running
T19EE4 000:352.994   CPU_WriteMem(4 bytes @ 0xE000EDFC)
T19EE4 000:358.468   CPU_ReadMem(4 bytes @ 0xE000EDF0)
T19EE4 000:362.433   CPU_WriteMem(4 bytes @ 0xE0002000)
T19EE4 000:362.859   CPU_ReadMem(4 bytes @ 0xE000EDFC)
T19EE4 000:363.192   CPU_ReadMem(4 bytes @ 0xE0001000)
T19EE4 000:363.521   CPU_WriteMem(4 bytes @ 0xE0001000)
T19EE4 000:363.862 - 71.293ms
T19EE4 000:363.884 JLINK_Halt()
T19EE4 000:363.897 - 0.019ms returns 0x00
T19EE4 000:363.913 JLINK_ReadMemU32(0xE000EDF0, 0x1 Items)
T19EE4 000:363.931   CPU_ReadMem(4 bytes @ 0xE000EDF0)
T19EE4 000:364.260   Data:  03 00 03 00
T19EE4 000:364.281   Debug reg: DHCSR
T19EE4 000:364.299 - 0.392ms returns 1 (0x1)
T19EE4 000:364.316 JLINK_WriteU32_64(0xE000EDF0, 0xA05F0003)
T19EE4 000:364.331   Debug reg: DHCSR
T19EE4 000:364.564   CPU_WriteMem(4 bytes @ 0xE000EDF0)
T19EE4 000:365.855 - 1.549ms returns 0 (0x00000000)
T19EE4 000:365.875 JLINK_WriteU32_64(0xE000EDFC, 0x01000000)
T19EE4 000:365.888   Debug reg: DEMCR
T19EE4 000:365.909   CPU_WriteMem(4 bytes @ 0xE000EDFC)
T19EE4 000:366.255 - 0.387ms returns 0 (0x00000000)
T19EE4 000:373.913 JLINK_GetHWStatus(...)
T19EE4 000:374.077 - 0.169ms returns 0
T19EE4 000:379.313 JLINK_GetNumBPUnits(Type = 0xFFFFFF00)
T19EE4 000:379.332 - 0.021ms returns 0x02
T19EE4 000:379.340 JLINK_GetNumBPUnits(Type = 0xF0)
T19EE4 000:379.346 - 0.010ms returns 0x2000
T19EE4 000:379.354 JLINK_GetNumWPUnits()
T19EE4 000:379.360 - 0.010ms returns 2
T19EE4 000:384.850 JLINK_GetSpeed()
T19EE4 000:384.868 - 0.021ms returns 3000
T19EE4 000:387.948 JLINK_ReadMemU32(0xE000E004, 0x1 Items)
T19EE4 000:387.969   CPU_ReadMem(4 bytes @ 0xE000E004)
T19EE4 000:388.286   Data:  00 00 00 00
T19EE4 000:388.298 - 0.354ms returns 1 (0x1)
T19EE4 000:388.309 JLINK_Halt()
T19EE4 000:388.316 - 0.010ms returns 0x00
T19EE4 000:388.324 JLINK_IsHalted()
T19EE4 000:388.331 - 0.010ms returns TRUE
T19EE4 000:390.252 JLINK_WriteMem(0x20000000, 0x14C Bytes, ...)
T19EE4 000:390.265   Data:  00 BE 0A E0 0D 78 2D 06 68 40 08 24 40 00 00 D3 ...
T19EE4 000:390.429   CPU_WriteMem(332 bytes @ 0x20000000)
T19EE4 000:393.553 - 3.311ms returns 0x14C
T19EE4 000:393.648 JLINK_HasError()
T19EE4 000:393.658 JLINK_WriteReg(R0, 0x00000000)
T19EE4 000:393.668 - 0.013ms returns 0
T19EE4 000:393.675 JLINK_WriteReg(R1, 0x00B71B00)
T19EE4 000:393.682 - 0.010ms returns 0
T19EE4 000:393.689 JLINK_WriteReg(R2, 0x00000001)
T19EE4 000:393.937 - 0.251ms returns 0
T19EE4 000:393.945 JLINK_WriteReg(R3, 0x00000000)
T19EE4 000:393.952 - 0.010ms returns 0
T19EE4 000:393.959 JLINK_WriteReg(R4, 0x00000000)
T19EE4 000:393.966 - 0.010ms returns 0
T19EE4 000:393.973 JLINK_WriteReg(R5, 0x00000000)
T19EE4 000:393.980 - 0.010ms returns 0
T19EE4 000:393.987 JLINK_WriteReg(R6, 0x00000000)
T19EE4 000:393.994 - 0.010ms returns 0
T19EE4 000:394.001 JLINK_WriteReg(R7, 0x00000000)
T19EE4 000:394.008 - 0.010ms returns 0
T19EE4 000:394.015 JLINK_WriteReg(R8, 0x00000000)
T19EE4 000:394.029 - 0.017ms returns 0
T19EE4 000:394.036 JLINK_WriteReg(R9, 0x20000148)
T19EE4 000:394.042 - 0.009ms returns 0
T19EE4 000:394.050 JLINK_WriteReg(R10, 0x00000000)
T19EE4 000:394.056 - 0.010ms returns 0
T19EE4 000:394.064 JLINK_WriteReg(R11, 0x00000000)
T19EE4 000:394.070 - 0.010ms returns 0
T19EE4 000:394.078 JLINK_WriteReg(R12, 0x00000000)
T19EE4 000:394.085 - 0.010ms returns 0
T19EE4 000:394.092 JLINK_WriteReg(R13 (SP), 0x20001000)
T19EE4 000:394.099 - 0.010ms returns 0
T19EE4 000:394.106 JLINK_WriteReg(R14, 0x20000001)
T19EE4 000:394.113 - 0.010ms returns 0
T19EE4 000:394.120 JLINK_WriteReg(R15 (PC), 0x20000038)
T19EE4 000:394.129 - 0.012ms returns 0
T19EE4 000:394.136 JLINK_WriteReg(XPSR, 0x01000000)
T19EE4 000:394.143 - 0.010ms returns 0
T19EE4 000:394.150 JLINK_WriteReg(MSP, 0x20001000)
T19EE4 000:394.157 - 0.010ms returns 0
T19EE4 000:394.164 JLINK_WriteReg(PSP, 0x20001000)
T19EE4 000:394.171 - 0.010ms returns 0
T19EE4 000:394.178 JLINK_WriteReg(CFBP, 0x00000000)
T19EE4 000:394.185 - 0.010ms returns 0
T19EE4 000:394.192 JLINK_SetBPEx(Addr = 0x20000000, Type = 0xFFFFFFF2)
T19EE4 000:394.202   CPU_ReadMem(4 bytes @ 0x20000000)
T19EE4 000:394.513   CPU_WriteMem(4 bytes @ 0x20000000)
T19EE4 000:394.829   CPU_ReadMem(4 bytes @ 0x20000000)
T19EE4 000:395.132   CPU_WriteMem(4 bytes @ 0x20000000)
T19EE4 000:395.462   CPU_ReadMem(2 bytes @ 0x20000000)
T19EE4 000:395.781 - 1.593ms returns 0x00000001
T19EE4 000:395.790 JLINK_Go()
T19EE4 000:395.798   CPU_WriteMem(2 bytes @ 0x20000000)
T19EE4 000:396.127   CPU_ReadMem(4 bytes @ 0xE0001000)
T19EE4 000:396.430   CPU_WriteMem(4 bytes @ 0xE0001000)
T19EE4 000:396.441   CPU_WriteMem(4 bytes @ 0xE0002008)
T19EE4 000:396.451   CPU_WriteMem(4 bytes @ 0xE000200C)
T19EE4 000:397.360   CPU_WriteMem(4 bytes @ 0xE0001004)
T19EE4 000:400.886 - 5.107ms
T19EE4 000:400.904 JLINK_IsHalted()
T19EE4 000:404.146   CPU_ReadMem(2 bytes @ 0x20000000)
T19EE4 000:404.447 - 3.547ms returns TRUE
T19EE4 000:404.457 JLINK_ReadReg(R15 (PC))
T19EE4 000:404.466 - 0.012ms returns 0x20000000
T19EE4 000:404.474 JLINK_ClrBPEx(BPHandle = 0x00000001)
T19EE4 000:404.481 - 0.010ms returns 0x00
T19EE4 000:404.488 JLINK_ReadReg(R0)
T19EE4 000:404.495 - 0.010ms returns 0x00000000
T19EE4 000:404.631 JLINK_HasError()
T19EE4 000:404.641 JLINK_WriteReg(R0, 0x00000000)
T19EE4 000:404.649 - 0.011ms returns 0
T19EE4 000:404.656 JLINK_WriteReg(R1, 0x00B71B00)
T19EE4 000:404.663 - 0.010ms returns 0
T19EE4 000:404.671 JLINK_WriteReg(R2, 0x00000001)
T19EE4 000:404.677 - 0.010ms returns 0
T19EE4 000:404.685 JLINK_WriteReg(R3, 0x00000000)
T19EE4 000:404.691 - 0.010ms returns 0
T19EE4 000:404.698 JLINK_WriteReg(R4, 0x00000000)
T19EE4 000:404.705 - 0.010ms returns 0
T19EE4 000:404.712 JLINK_WriteReg(R5, 0x00000000)
T19EE4 000:404.719 - 0.010ms returns 0
T19EE4 000:404.726 JLINK_WriteReg(R6, 0x00000000)
T19EE4 000:404.733 - 0.010ms returns 0
T19EE4 000:404.740 JLINK_WriteReg(R7, 0x00000000)
T19EE4 000:404.747 - 0.010ms returns 0
T19EE4 000:404.754 JLINK_WriteReg(R8, 0x00000000)
T19EE4 000:404.761 - 0.010ms returns 0
T19EE4 000:404.768 JLINK_WriteReg(R9, 0x20000148)
T19EE4 000:404.775 - 0.010ms returns 0
T19EE4 000:404.782 JLINK_WriteReg(R10, 0x00000000)
T19EE4 000:404.789 - 0.010ms returns 0
T19EE4 000:404.796 JLINK_WriteReg(R11, 0x00000000)
T19EE4 000:404.802 - 0.010ms returns 0
T19EE4 000:404.810 JLINK_WriteReg(R12, 0x00000000)
T19EE4 000:404.816 - 0.010ms returns 0
T19EE4 000:404.823 JLINK_WriteReg(R13 (SP), 0x20001000)
T19EE4 000:404.831 - 0.010ms returns 0
T19EE4 000:404.838 JLINK_WriteReg(R14, 0x20000001)
T19EE4 000:404.845 - 0.010ms returns 0
T19EE4 000:404.852 JLINK_WriteReg(R15 (PC), 0x20000040)
T19EE4 000:404.859 - 0.010ms returns 0
T19EE4 000:404.866 JLINK_WriteReg(XPSR, 0x01000000)
T19EE4 000:404.873 - 0.010ms returns 0
T19EE4 000:404.880 JLINK_WriteReg(MSP, 0x20001000)
T19EE4 000:404.887 - 0.010ms returns 0
T19EE4 000:404.894 JLINK_WriteReg(PSP, 0x20001000)
T19EE4 000:404.901 - 0.010ms returns 0
T19EE4 000:404.908 JLINK_WriteReg(CFBP, 0x00000000)
T19EE4 000:404.914 - 0.009ms returns 0
T19EE4 000:404.922 JLINK_SetBPEx(Addr = 0x20000000, Type = 0xFFFFFFF2)
T19EE4 000:404.929 - 0.010ms returns 0x00000002
T19EE4 000:404.936 JLINK_Go()
T19EE4 000:404.946   CPU_ReadMem(4 bytes @ 0xE0001000)
T19EE4 000:405.254   CPU_WriteMem(4 bytes @ 0xE0001000)
T19EE4 000:408.879 - 3.957ms
T19EE4 000:408.900 JLINK_IsHalted()
T19EE4 000:441.757 - 32.870ms returns FALSE
T19EE4 000:441.781 JLINK_HasError()
T19EE4 000:460.474 JLINK_IsHalted()
T19EE4 000:463.843   CPU_ReadMem(2 bytes @ 0x20000000)
T19EE4 000:464.227 - 3.757ms returns TRUE
T19EE4 000:464.238 JLINK_ReadReg(R15 (PC))
T19EE4 000:464.246 - 0.012ms returns 0x20000000
T19EE4 000:464.254 JLINK_ClrBPEx(BPHandle = 0x00000002)
T19EE4 000:464.261 - 0.010ms returns 0x00
T19EE4 000:464.269 JLINK_ReadReg(R0)
T19EE4 000:464.276 - 0.010ms returns 0x00000000
T19EE4 000:518.124 JLINK_HasError()
T19EE4 000:518.170 JLINK_WriteReg(R0, 0x00000001)
T19EE4 000:518.192 - 0.029ms returns 0
T19EE4 000:518.209 JLINK_WriteReg(R1, 0x00B71B00)
T19EE4 000:518.224 - 0.022ms returns 0
T19EE4 000:518.240 JLINK_WriteReg(R2, 0x00000001)
T19EE4 000:518.255 - 0.022ms returns 0
T19EE4 000:518.270 JLINK_WriteReg(R3, 0x00000000)
T19EE4 000:518.285 - 0.075ms returns 0
T19EE4 000:518.358 JLINK_WriteReg(R4, 0x00000000)
T19EE4 000:518.373 - 0.022ms returns 0
T19EE4 000:518.388 JLINK_WriteReg(R5, 0x00000000)
T19EE4 000:518.403 - 0.022ms returns 0
T19EE4 000:518.419 JLINK_WriteReg(R6, 0x00000000)
T19EE4 000:518.434 - 0.022ms returns 0
T19EE4 000:518.449 JLINK_WriteReg(R7, 0x00000000)
T19EE4 000:518.464 - 0.024ms returns 0
T19EE4 000:518.481 JLINK_WriteReg(R8, 0x00000000)
T19EE4 000:518.496 - 0.022ms returns 0
T19EE4 000:518.512 JLINK_WriteReg(R9, 0x20000148)
T19EE4 000:518.526 - 0.021ms returns 0
T19EE4 000:518.542 JLINK_WriteReg(R10, 0x00000000)
T19EE4 000:518.557 - 0.022ms returns 0
T19EE4 000:518.574 JLINK_WriteReg(R11, 0x00000000)
T19EE4 000:518.588 - 0.019ms returns 0
T19EE4 000:518.601 JLINK_WriteReg(R12, 0x00000000)
T19EE4 000:518.614 - 0.019ms returns 0
T19EE4 000:518.628 JLINK_WriteReg(R13 (SP), 0x20001000)
T19EE4 000:518.642 - 0.020ms returns 0
T19EE4 000:518.656 JLINK_WriteReg(R14, 0x20000001)
T19EE4 000:518.669 - 0.019ms returns 0
T19EE4 000:518.683 JLINK_WriteReg(R15 (PC), 0x2000003C)
T19EE4 000:518.696 - 0.019ms returns 0
T19EE4 000:518.710 JLINK_WriteReg(XPSR, 0x01000000)
T19EE4 000:518.723 - 0.019ms returns 0
T19EE4 000:518.736 JLINK_WriteReg(MSP, 0x20001000)
T19EE4 000:518.749 - 0.019ms returns 0
T19EE4 000:518.763 JLINK_WriteReg(PSP, 0x20001000)
T19EE4 000:518.776 - 0.019ms returns 0
T19EE4 000:518.790 JLINK_WriteReg(CFBP, 0x00000000)
T19EE4 000:518.803 - 0.019ms returns 0
T19EE4 000:518.817 JLINK_SetBPEx(Addr = 0x20000000, Type = 0xFFFFFFF2)
T19EE4 000:518.832 - 0.021ms returns 0x00000003
T19EE4 000:518.846 JLINK_Go()
T19EE4 000:518.869   CPU_ReadMem(4 bytes @ 0xE0001000)
T19EE4 000:519.260   CPU_WriteMem(4 bytes @ 0xE0001000)
T19EE4 000:522.858 - 4.020ms
T19EE4 000:522.875 JLINK_IsHalted()
T19EE4 000:526.194   CPU_ReadMem(2 bytes @ 0x20000000)
T19EE4 000:526.589 - 3.724ms returns TRUE
T19EE4 000:526.610 JLINK_ReadReg(R15 (PC))
T19EE4 000:526.627 - 0.024ms returns 0x20000000
T19EE4 000:526.644 JLINK_ClrBPEx(BPHandle = 0x00000003)
T19EE4 000:526.660 - 0.023ms returns 0x00
T19EE4 000:526.676 JLINK_ReadReg(R0)
T19EE4 000:526.691 - 0.022ms returns 0x00000000
T19EE4 000:532.630 JLINK_WriteMem(0x20000000, 0x14C Bytes, ...)
T19EE4 000:532.648   Data:  00 BE 0A E0 0D 78 2D 06 68 40 08 24 40 00 00 D3 ...
T19EE4 000:532.669   CPU_WriteMem(332 bytes @ 0x20000000)
T19EE4 000:535.380 - 2.763ms returns 0x14C
T19EE4 000:535.415 JLINK_HasError()
T19EE4 000:535.424 JLINK_WriteReg(R0, 0x00000000)
T19EE4 000:535.433 - 0.013ms returns 0
T19EE4 000:535.441 JLINK_WriteReg(R1, 0x00B71B00)
T19EE4 000:535.448 - 0.010ms returns 0
T19EE4 000:535.455 JLINK_WriteReg(R2, 0x00000002)
T19EE4 000:535.463 - 0.011ms returns 0
T19EE4 000:535.470 JLINK_WriteReg(R3, 0x00000000)
T19EE4 000:535.477 - 0.010ms returns 0
T19EE4 000:535.484 JLINK_WriteReg(R4, 0x00000000)
T19EE4 000:535.491 - 0.010ms returns 0
T19EE4 000:535.498 JLINK_WriteReg(R5, 0x00000000)
T19EE4 000:535.505 - 0.010ms returns 0
T19EE4 000:535.516 JLINK_WriteReg(R6, 0x00000000)
T19EE4 000:535.523 - 0.010ms returns 0
T19EE4 000:535.530 JLINK_WriteReg(R7, 0x00000000)
T19EE4 000:535.537 - 0.010ms returns 0
T19EE4 000:535.544 JLINK_WriteReg(R8, 0x00000000)
T19EE4 000:535.551 - 0.010ms returns 0
T19EE4 000:535.558 JLINK_WriteReg(R9, 0x20000148)
T19EE4 000:535.565 - 0.010ms returns 0
T19EE4 000:535.572 JLINK_WriteReg(R10, 0x00000000)
T19EE4 000:535.578 - 0.010ms returns 0
T19EE4 000:535.585 JLINK_WriteReg(R11, 0x00000000)
T19EE4 000:535.592 - 0.010ms returns 0
T19EE4 000:535.599 JLINK_WriteReg(R12, 0x00000000)
T19EE4 000:535.606 - 0.010ms returns 0
T19EE4 000:535.613 JLINK_WriteReg(R13 (SP), 0x20001000)
T19EE4 000:535.620 - 0.010ms returns 0
T19EE4 000:535.628 JLINK_WriteReg(R14, 0x20000001)
T19EE4 000:535.634 - 0.010ms returns 0
T19EE4 000:535.641 JLINK_WriteReg(R15 (PC), 0x20000038)
T19EE4 000:535.648 - 0.010ms returns 0
T19EE4 000:535.655 JLINK_WriteReg(XPSR, 0x01000000)
T19EE4 000:535.662 - 0.010ms returns 0
T19EE4 000:535.670 JLINK_WriteReg(MSP, 0x20001000)
T19EE4 000:535.678 - 0.013ms returns 0
T19EE4 000:535.687 JLINK_WriteReg(PSP, 0x20001000)
T19EE4 000:535.694 - 0.010ms returns 0
T19EE4 000:535.701 JLINK_WriteReg(CFBP, 0x00000000)
T19EE4 000:535.708 - 0.010ms returns 0
T19EE4 000:535.715 JLINK_SetBPEx(Addr = 0x20000000, Type = 0xFFFFFFF2)
T19EE4 000:535.724   CPU_ReadMem(4 bytes @ 0x20000000)
T19EE4 000:536.048   CPU_WriteMem(4 bytes @ 0x20000000)
T19EE4 000:536.477   CPU_ReadMem(4 bytes @ 0x20000000)
T19EE4 000:536.781   CPU_WriteMem(4 bytes @ 0x20000000)
T19EE4 000:537.099   CPU_ReadMem(2 bytes @ 0x20000000)
T19EE4 000:537.402 - 1.691ms returns 0x00000004
T19EE4 000:537.411 JLINK_Go()
T19EE4 000:537.419   CPU_WriteMem(2 bytes @ 0x20000000)
T19EE4 000:537.755   CPU_ReadMem(4 bytes @ 0xE0001000)
T19EE4 000:538.060   CPU_WriteMem(4 bytes @ 0xE0001000)
T19EE4 000:541.703 - 4.296ms
T19EE4 000:541.712 JLINK_IsHalted()
T19EE4 000:544.967   CPU_ReadMem(2 bytes @ 0x20000000)
T19EE4 000:545.270 - 3.563ms returns TRUE
T19EE4 000:545.282 JLINK_ReadReg(R15 (PC))
T19EE4 000:545.290 - 0.012ms returns 0x20000000
T19EE4 000:545.299 JLINK_ClrBPEx(BPHandle = 0x00000004)
T19EE4 000:545.307 - 0.011ms returns 0x00
T19EE4 000:545.316 JLINK_ReadReg(R0)
T19EE4 000:545.324 - 0.011ms returns 0x00000000
T19EE4 000:545.470 JLINK_WriteMem(0x2000014C, 0x200 Bytes, ...)
T19EE4 000:545.481   Data:  10 0D 00 20 81 01 00 00 8F 01 00 00 91 01 00 00 ...
T19EE4 000:545.496   CPU_WriteMem(512 bytes @ 0x2000014C)
T19EE4 000:549.535 - 4.081ms returns 0x200
T19EE4 000:549.560 JLINK_HasError()
T19EE4 000:549.571 JLINK_WriteReg(R0, 0x00000000)
T19EE4 000:549.584 - 0.151ms returns 0
T19EE4 000:549.727 JLINK_WriteReg(R1, 0x00000200)
T19EE4 000:549.737 - 0.013ms returns 0
T19EE4 000:549.746 JLINK_WriteReg(R2, 0x2000014C)
T19EE4 000:549.755 - 0.013ms returns 0
T19EE4 000:549.764 JLINK_WriteReg(R3, 0x00000000)
T19EE4 000:549.773 - 0.013ms returns 0
T19EE4 000:549.783 JLINK_WriteReg(R4, 0x00000000)
T19EE4 000:549.791 - 0.013ms returns 0
T19EE4 000:549.801 JLINK_WriteReg(R5, 0x00000000)
T19EE4 000:549.810 - 0.013ms returns 0
T19EE4 000:549.819 JLINK_WriteReg(R6, 0x00000000)
T19EE4 000:549.828 - 0.013ms returns 0
T19EE4 000:549.837 JLINK_WriteReg(R7, 0x00000000)
T19EE4 000:549.846 - 0.013ms returns 0
T19EE4 000:549.855 JLINK_WriteReg(R8, 0x00000000)
T19EE4 000:549.864 - 0.013ms returns 0
T19EE4 000:549.873 JLINK_WriteReg(R9, 0x20000148)
T19EE4 000:549.882 - 0.013ms returns 0
T19EE4 000:549.891 JLINK_WriteReg(R10, 0x00000000)
T19EE4 000:549.900 - 0.013ms returns 0
T19EE4 000:549.910 JLINK_WriteReg(R11, 0x00000000)
T19EE4 000:549.919 - 0.013ms returns 0
T19EE4 000:549.928 JLINK_WriteReg(R12, 0x00000000)
T19EE4 000:549.937 - 0.014ms returns 0
T19EE4 000:549.947 JLINK_WriteReg(R13 (SP), 0x20001000)
T19EE4 000:549.956 - 0.012ms returns 0
T19EE4 000:549.964 JLINK_WriteReg(R14, 0x20000001)
T19EE4 000:549.973 - 0.012ms returns 0
T19EE4 000:549.981 JLINK_WriteReg(R15 (PC), 0x200000D8)
T19EE4 000:549.990 - 0.012ms returns 0
T19EE4 000:549.998 JLINK_WriteReg(XPSR, 0x01000000)
T19EE4 000:550.007 - 0.012ms returns 0
T19EE4 000:550.015 JLINK_WriteReg(MSP, 0x20001000)
T19EE4 000:550.024 - 0.012ms returns 0
T19EE4 000:550.032 JLINK_WriteReg(PSP, 0x20001000)
T19EE4 000:550.041 - 0.012ms returns 0
T19EE4 000:550.049 JLINK_WriteReg(CFBP, 0x00000000)
T19EE4 000:550.058 - 0.012ms returns 0
T19EE4 000:550.066 JLINK_SetBPEx(Addr = 0x20000000, Type = 0xFFFFFFF2)
T19EE4 000:550.076 - 0.013ms returns 0x00000005
T19EE4 000:550.085 JLINK_Go()
T19EE4 000:550.096   CPU_ReadMem(4 bytes @ 0xE0001000)
T19EE4 000:550.413   CPU_WriteMem(4 bytes @ 0xE0001000)
T19EE4 000:554.129 - 4.056ms
T19EE4 000:554.147 JLINK_IsHalted()
T19EE4 000:554.474 - 0.331ms returns FALSE
T19EE4 000:554.484 JLINK_HasError()
T19EE4 000:558.495 JLINK_IsHalted()
T19EE4 000:558.994 - 0.504ms returns FALSE
T19EE4 000:559.004 JLINK_HasError()
T19EE4 000:560.478 JLINK_IsHalted()
T19EE4 000:563.998   CPU_ReadMem(2 bytes @ 0x20000000)
T19EE4 000:564.455 - 3.981ms returns TRUE
T19EE4 000:564.465 JLINK_ReadReg(R15 (PC))
T19EE4 000:564.477 - 0.015ms returns 0x20000000
T19EE4 000:564.485 JLINK_ClrBPEx(BPHandle = 0x00000005)
T19EE4 000:564.498 - 0.017ms returns 0x00
T19EE4 000:564.506 JLINK_ReadReg(R0)
T19EE4 000:564.513 - 0.010ms returns 0x00000000
T19EE4 000:566.151 JLINK_WriteMem(0x2000014C, 0x200 Bytes, ...)
T19EE4 000:566.182   Data:  A2 1A 91 40 08 43 19 46 10 BD 43 43 51 43 30 B5 ...
T19EE4 000:566.211   CPU_WriteMem(512 bytes @ 0x2000014C)
T19EE4 000:570.309 - 4.196ms returns 0x200
T19EE4 000:570.355 JLINK_HasError()
T19EE4 000:570.364 JLINK_WriteReg(R0, 0x00000200)
T19EE4 000:570.373 - 0.012ms returns 0
T19EE4 000:570.381 JLINK_WriteReg(R1, 0x00000200)
T19EE4 000:570.388 - 0.010ms returns 0
T19EE4 000:570.395 JLINK_WriteReg(R2, 0x2000014C)
T19EE4 000:570.402 - 0.010ms returns 0
T19EE4 000:570.409 JLINK_WriteReg(R3, 0x00000000)
T19EE4 000:570.416 - 0.010ms returns 0
T19EE4 000:570.423 JLINK_WriteReg(R4, 0x00000000)
T19EE4 000:570.430 - 0.010ms returns 0
T19EE4 000:570.437 JLINK_WriteReg(R5, 0x00000000)
T19EE4 000:570.444 - 0.010ms returns 0
T19EE4 000:570.451 JLINK_WriteReg(R6, 0x00000000)
T19EE4 000:570.458 - 0.010ms returns 0
T19EE4 000:570.466 JLINK_WriteReg(R7, 0x00000000)
T19EE4 000:570.473 - 0.010ms returns 0
T19EE4 000:570.480 JLINK_WriteReg(R8, 0x00000000)
T19EE4 000:570.487 - 0.014ms returns 0
T19EE4 000:570.499 JLINK_WriteReg(R9, 0x20000148)
T19EE4 000:570.505 - 0.010ms returns 0
T19EE4 000:570.513 JLINK_WriteReg(R10, 0x00000000)
T19EE4 000:570.519 - 0.010ms returns 0
T19EE4 000:570.528 JLINK_WriteReg(R11, 0x00000000)
T19EE4 000:570.535 - 0.010ms returns 0
T19EE4 000:570.543 JLINK_WriteReg(R12, 0x00000000)
T19EE4 000:570.549 - 0.010ms returns 0
T19EE4 000:570.557 JLINK_WriteReg(R13 (SP), 0x20001000)
T19EE4 000:570.564 - 0.010ms returns 0
T19EE4 000:570.572 JLINK_WriteReg(R14, 0x20000001)
T19EE4 000:570.579 - 0.010ms returns 0
T19EE4 000:570.587 JLINK_WriteReg(R15 (PC), 0x200000D8)
T19EE4 000:570.593 - 0.010ms returns 0
T19EE4 000:570.601 JLINK_WriteReg(XPSR, 0x01000000)
T19EE4 000:570.608 - 0.010ms returns 0
T19EE4 000:570.616 JLINK_WriteReg(MSP, 0x20001000)
T19EE4 000:570.623 - 0.010ms returns 0
T19EE4 000:570.631 JLINK_WriteReg(PSP, 0x20001000)
T19EE4 000:570.637 - 0.010ms returns 0
T19EE4 000:570.645 JLINK_WriteReg(CFBP, 0x00000000)
T19EE4 000:570.652 - 0.010ms returns 0
T19EE4 000:570.660 JLINK_SetBPEx(Addr = 0x20000000, Type = 0xFFFFFFF2)
T19EE4 000:570.667 - 0.010ms returns 0x00000006
T19EE4 000:570.675 JLINK_Go()
T19EE4 000:570.685   CPU_ReadMem(4 bytes @ 0xE0001000)
T19EE4 000:571.002   CPU_WriteMem(4 bytes @ 0xE0001000)
T19EE4 000:574.703 - 4.032ms
T19EE4 000:574.713 JLINK_IsHalted()
T19EE4 000:575.079 - 0.370ms returns FALSE
T19EE4 000:575.090 JLINK_HasError()
T19EE4 000:576.616 JLINK_IsHalted()
T19EE4 000:576.980 - 0.372ms returns FALSE
T19EE4 000:576.994 JLINK_HasError()
T19EE4 000:578.490 JLINK_IsHalted()
T19EE4 000:578.879 - 0.395ms returns FALSE
T19EE4 000:578.891 JLINK_HasError()
T19EE4 000:580.481 JLINK_IsHalted()
T19EE4 000:583.850   CPU_ReadMem(2 bytes @ 0x20000000)
T19EE4 000:584.169 - 3.693ms returns TRUE
T19EE4 000:584.180 JLINK_ReadReg(R15 (PC))
T19EE4 000:584.189 - 0.012ms returns 0x20000000
T19EE4 000:584.196 JLINK_ClrBPEx(BPHandle = 0x00000006)
T19EE4 000:584.204 - 0.010ms returns 0x00
T19EE4 000:584.211 JLINK_ReadReg(R0)
T19EE4 000:584.218 - 0.014ms returns 0x00000000
T19EE4 000:584.421 JLINK_WriteMem(0x2000014C, 0x200 Bytes, ...)
T19EE4 000:584.431   Data:  CA 0F 00 D0 49 42 03 10 00 D3 40 42 53 40 00 22 ...
T19EE4 000:584.444   CPU_WriteMem(512 bytes @ 0x2000014C)
T19EE4 000:588.625 - 4.229ms returns 0x200
T19EE4 000:588.656 JLINK_HasError()
T19EE4 000:588.664 JLINK_WriteReg(R0, 0x00000400)
T19EE4 000:588.673 - 0.012ms returns 0
T19EE4 000:588.681 JLINK_WriteReg(R1, 0x00000200)
T19EE4 000:588.689 - 0.011ms returns 0
T19EE4 000:588.697 JLINK_WriteReg(R2, 0x2000014C)
T19EE4 000:588.704 - 0.011ms returns 0
T19EE4 000:588.712 JLINK_WriteReg(R3, 0x00000000)
T19EE4 000:588.720 - 0.013ms returns 0
T19EE4 000:588.731 JLINK_WriteReg(R4, 0x00000000)
T19EE4 000:588.740 - 0.012ms returns 0
T19EE4 000:588.748 JLINK_WriteReg(R5, 0x00000000)
T19EE4 000:588.756 - 0.011ms returns 0
T19EE4 000:588.764 JLINK_WriteReg(R6, 0x00000000)
T19EE4 000:588.771 - 0.011ms returns 0
T19EE4 000:588.779 JLINK_WriteReg(R7, 0x00000000)
T19EE4 000:588.786 - 0.011ms returns 0
T19EE4 000:588.794 JLINK_WriteReg(R8, 0x00000000)
T19EE4 000:588.802 - 0.011ms returns 0
T19EE4 000:588.810 JLINK_WriteReg(R9, 0x20000148)
T19EE4 000:588.817 - 0.011ms returns 0
T19EE4 000:588.825 JLINK_WriteReg(R10, 0x00000000)
T19EE4 000:588.832 - 0.011ms returns 0
T19EE4 000:588.840 JLINK_WriteReg(R11, 0x00000000)
T19EE4 000:588.848 - 0.011ms returns 0
T19EE4 000:588.856 JLINK_WriteReg(R12, 0x00000000)
T19EE4 000:588.863 - 0.011ms returns 0
T19EE4 000:588.871 JLINK_WriteReg(R13 (SP), 0x20001000)
T19EE4 000:588.880 - 0.012ms returns 0
T19EE4 000:588.888 JLINK_WriteReg(R14, 0x20000001)
T19EE4 000:588.895 - 0.015ms returns 0
T19EE4 000:588.908 JLINK_WriteReg(R15 (PC), 0x200000D8)
T19EE4 000:588.915 - 0.011ms returns 0
T19EE4 000:588.923 JLINK_WriteReg(XPSR, 0x01000000)
T19EE4 000:588.931 - 0.011ms returns 0
T19EE4 000:588.939 JLINK_WriteReg(MSP, 0x20001000)
T19EE4 000:588.946 - 0.011ms returns 0
T19EE4 000:588.954 JLINK_WriteReg(PSP, 0x20001000)
T19EE4 000:588.962 - 0.011ms returns 0
T19EE4 000:588.969 JLINK_WriteReg(CFBP, 0x00000000)
T19EE4 000:588.977 - 0.011ms returns 0
T19EE4 000:588.985 JLINK_SetBPEx(Addr = 0x20000000, Type = 0xFFFFFFF2)
T19EE4 000:588.993 - 0.012ms returns 0x00000007
T19EE4 000:589.001 JLINK_Go()
T19EE4 000:589.012   CPU_ReadMem(4 bytes @ 0xE0001000)
T19EE4 000:589.328   CPU_WriteMem(4 bytes @ 0xE0001000)
T19EE4 000:592.905 - 3.909ms
T19EE4 000:592.917 JLINK_IsHalted()
T19EE4 000:593.226 - 0.314ms returns FALSE
T19EE4 000:593.238 JLINK_HasError()
T19EE4 000:594.480 JLINK_IsHalted()
T19EE4 000:594.831 - 0.357ms returns FALSE
T19EE4 000:594.844 JLINK_HasError()
T19EE4 000:596.509 JLINK_IsHalted()
T19EE4 000:596.988 - 0.494ms returns FALSE
T19EE4 000:597.013 JLINK_HasError()
T19EE4 000:598.561 JLINK_IsHalted()
T19EE4 000:602.066   CPU_ReadMem(2 bytes @ 0x20000000)
T19EE4 000:602.456 - 3.903ms returns TRUE
T19EE4 000:602.474 JLINK_ReadReg(R15 (PC))
T19EE4 000:602.485 - 0.016ms returns 0x20000000
T19EE4 000:602.496 JLINK_ClrBPEx(BPHandle = 0x00000007)
T19EE4 000:602.506 - 0.016ms returns 0x00
T19EE4 000:602.519 JLINK_ReadReg(R0)
T19EE4 000:602.529 - 0.014ms returns 0x00000000
T19EE4 000:602.824 JLINK_WriteMem(0x2000014C, 0x200 Bytes, ...)
T19EE4 000:602.838   Data:  40 08 49 08 E4 0F 28 43 61 44 00 2C D5 D0 00 24 ...
T19EE4 000:602.856   CPU_WriteMem(512 bytes @ 0x2000014C)
T19EE4 000:606.917 - 4.133ms returns 0x200
T19EE4 000:606.969 JLINK_HasError()
T19EE4 000:606.981 JLINK_WriteReg(R0, 0x00000600)
T19EE4 000:606.994 - 0.018ms returns 0
T19EE4 000:607.006 JLINK_WriteReg(R1, 0x00000200)
T19EE4 000:607.017 - 0.016ms returns 0
T19EE4 000:607.028 JLINK_WriteReg(R2, 0x2000014C)
T19EE4 000:607.044 - 0.020ms returns 0
T19EE4 000:607.055 JLINK_WriteReg(R3, 0x00000000)
T19EE4 000:607.066 - 0.015ms returns 0
T19EE4 000:607.077 JLINK_WriteReg(R4, 0x00000000)
T19EE4 000:607.088 - 0.015ms returns 0
T19EE4 000:607.099 JLINK_WriteReg(R5, 0x00000000)
T19EE4 000:607.109 - 0.015ms returns 0
T19EE4 000:607.121 JLINK_WriteReg(R6, 0x00000000)
T19EE4 000:607.131 - 0.015ms returns 0
T19EE4 000:607.142 JLINK_WriteReg(R7, 0x00000000)
T19EE4 000:607.153 - 0.015ms returns 0
T19EE4 000:607.164 JLINK_WriteReg(R8, 0x00000000)
T19EE4 000:607.175 - 0.016ms returns 0
T19EE4 000:607.187 JLINK_WriteReg(R9, 0x20000148)
T19EE4 000:607.197 - 0.015ms returns 0
T19EE4 000:607.208 JLINK_WriteReg(R10, 0x00000000)
T19EE4 000:607.219 - 0.015ms returns 0
T19EE4 000:607.230 JLINK_WriteReg(R11, 0x00000000)
T19EE4 000:607.241 - 0.015ms returns 0
T19EE4 000:607.252 JLINK_WriteReg(R12, 0x00000000)
T19EE4 000:607.262 - 0.015ms returns 0
T19EE4 000:607.274 JLINK_WriteReg(R13 (SP), 0x20001000)
T19EE4 000:607.285 - 0.053ms returns 0
T19EE4 000:607.335 JLINK_WriteReg(R14, 0x20000001)
T19EE4 000:607.346 - 0.016ms returns 0
T19EE4 000:607.358 JLINK_WriteReg(R15 (PC), 0x200000D8)
T19EE4 000:607.368 - 0.015ms returns 0
T19EE4 000:607.380 JLINK_WriteReg(XPSR, 0x01000000)
T19EE4 000:607.390 - 0.016ms returns 0
T19EE4 000:607.402 JLINK_WriteReg(MSP, 0x20001000)
T19EE4 000:607.412 - 0.015ms returns 0
T19EE4 000:607.424 JLINK_WriteReg(PSP, 0x20001000)
T19EE4 000:607.435 - 0.016ms returns 0
T19EE4 000:607.447 JLINK_WriteReg(CFBP, 0x00000000)
T19EE4 000:607.458 - 0.018ms returns 0
T19EE4 000:607.477 JLINK_SetBPEx(Addr = 0x20000000, Type = 0xFFFFFFF2)
T19EE4 000:607.489 - 0.018ms returns 0x00000008
T19EE4 000:607.504 JLINK_Go()
T19EE4 000:607.520   CPU_ReadMem(4 bytes @ 0xE0001000)
T19EE4 000:607.862   CPU_WriteMem(4 bytes @ 0xE0001000)
T19EE4 000:611.511 - 4.016ms
T19EE4 000:611.528 JLINK_IsHalted()
T19EE4 000:612.009 - 0.492ms returns FALSE
T19EE4 000:612.030 JLINK_HasError()
T19EE4 000:613.472 JLINK_IsHalted()
T19EE4 000:613.859 - 0.395ms returns FALSE
T19EE4 000:613.876 JLINK_HasError()
T19EE4 000:615.534 JLINK_IsHalted()
T19EE4 000:615.990 - 0.477ms returns FALSE
T19EE4 000:616.022 JLINK_HasError()
T19EE4 000:617.469 JLINK_IsHalted()
T19EE4 000:620.849   CPU_ReadMem(2 bytes @ 0x20000000)
T19EE4 000:621.213 - 3.752ms returns TRUE
T19EE4 000:621.229 JLINK_ReadReg(R15 (PC))
T19EE4 000:621.242 - 0.018ms returns 0x20000000
T19EE4 000:621.255 JLINK_ClrBPEx(BPHandle = 0x00000008)
T19EE4 000:621.266 - 0.016ms returns 0x00
T19EE4 000:621.277 JLINK_ReadReg(R0)
T19EE4 000:621.288 - 0.016ms returns 0x00000000
T19EE4 000:621.600 JLINK_WriteMem(0x2000014C, 0x200 Bytes, ...)
T19EE4 000:621.616   Data:  00 21 71 18 5F 00 00 2A 01 D0 01 26 00 E0 00 26 ...
T19EE4 000:621.637   CPU_WriteMem(512 bytes @ 0x2000014C)
T19EE4 000:625.725 - 4.157ms returns 0x200
T19EE4 000:625.769 JLINK_HasError()
T19EE4 000:625.783 JLINK_WriteReg(R0, 0x00000800)
T19EE4 000:625.798 - 0.021ms returns 0
T19EE4 000:625.812 JLINK_WriteReg(R1, 0x00000200)
T19EE4 000:625.825 - 0.019ms returns 0
T19EE4 000:625.839 JLINK_WriteReg(R2, 0x2000014C)
T19EE4 000:625.852 - 0.019ms returns 0
T19EE4 000:625.866 JLINK_WriteReg(R3, 0x00000000)
T19EE4 000:625.879 - 0.019ms returns 0
T19EE4 000:625.892 JLINK_WriteReg(R4, 0x00000000)
T19EE4 000:625.905 - 0.019ms returns 0
T19EE4 000:625.919 JLINK_WriteReg(R5, 0x00000000)
T19EE4 000:625.933 - 0.020ms returns 0
T19EE4 000:625.947 JLINK_WriteReg(R6, 0x00000000)
T19EE4 000:625.966 - 0.025ms returns 0
T19EE4 000:625.980 JLINK_WriteReg(R7, 0x00000000)
T19EE4 000:625.994 - 0.020ms returns 0
T19EE4 000:626.008 JLINK_WriteReg(R8, 0x00000000)
T19EE4 000:626.021 - 0.020ms returns 0
T19EE4 000:626.036 JLINK_WriteReg(R9, 0x20000148)
T19EE4 000:626.049 - 0.020ms returns 0
T19EE4 000:626.064 JLINK_WriteReg(R10, 0x00000000)
T19EE4 000:626.077 - 0.020ms returns 0
T19EE4 000:626.091 JLINK_WriteReg(R11, 0x00000000)
T19EE4 000:626.105 - 0.020ms returns 0
T19EE4 000:626.119 JLINK_WriteReg(R12, 0x00000000)
T19EE4 000:626.132 - 0.020ms returns 0
T19EE4 000:626.147 JLINK_WriteReg(R13 (SP), 0x20001000)
T19EE4 000:626.161 - 0.020ms returns 0
T19EE4 000:626.175 JLINK_WriteReg(R14, 0x20000001)
T19EE4 000:626.189 - 0.020ms returns 0
T19EE4 000:626.203 JLINK_WriteReg(R15 (PC), 0x200000D8)
T19EE4 000:626.217 - 0.020ms returns 0
T19EE4 000:626.232 JLINK_WriteReg(XPSR, 0x01000000)
T19EE4 000:626.246 - 0.020ms returns 0
T19EE4 000:626.260 JLINK_WriteReg(MSP, 0x20001000)
T19EE4 000:626.273 - 0.019ms returns 0
T19EE4 000:626.287 JLINK_WriteReg(PSP, 0x20001000)
T19EE4 000:626.301 - 0.020ms returns 0
T19EE4 000:626.315 JLINK_WriteReg(CFBP, 0x00000000)
T19EE4 000:626.329 - 0.020ms returns 0
T19EE4 000:626.343 JLINK_SetBPEx(Addr = 0x20000000, Type = 0xFFFFFFF2)
T19EE4 000:626.358 - 0.021ms returns 0x00000009
T19EE4 000:626.372 JLINK_Go()
T19EE4 000:626.390   CPU_ReadMem(4 bytes @ 0xE0001000)
T19EE4 000:626.714   CPU_WriteMem(4 bytes @ 0xE0001000)
T19EE4 000:630.278 - 3.920ms
T19EE4 000:630.303 JLINK_IsHalted()
T19EE4 000:630.732 - 0.436ms returns FALSE
T19EE4 000:630.749 JLINK_HasError()
T19EE4 000:632.531 JLINK_IsHalted()
T19EE4 000:633.004 - 0.493ms returns FALSE
T19EE4 000:633.035 JLINK_HasError()
T19EE4 000:634.468 JLINK_IsHalted()
T19EE4 000:634.856 - 0.394ms returns FALSE
T19EE4 000:634.870 JLINK_HasError()
T19EE4 000:636.552 JLINK_IsHalted()
T19EE4 000:639.899   CPU_ReadMem(2 bytes @ 0x20000000)
T19EE4 000:640.232 - 3.687ms returns TRUE
T19EE4 000:640.248 JLINK_ReadReg(R15 (PC))
T19EE4 000:640.262 - 0.019ms returns 0x20000000
T19EE4 000:640.275 JLINK_ClrBPEx(BPHandle = 0x00000009)
T19EE4 000:640.287 - 0.018ms returns 0x00
T19EE4 000:640.300 JLINK_ReadReg(R0)
T19EE4 000:640.311 - 0.017ms returns 0x00000000
T19EE4 000:640.732 JLINK_WriteMem(0x2000014C, 0x200 Bytes, ...)
T19EE4 000:640.756   Data:  B4 41 01 94 0C 46 5C 43 00 95 65 0F E7 00 0C 46 ...
T19EE4 000:640.781   CPU_WriteMem(512 bytes @ 0x2000014C)
T19EE4 000:644.850 - 4.154ms returns 0x200
T19EE4 000:644.911 JLINK_HasError()
T19EE4 000:644.945 JLINK_WriteReg(R0, 0x00000A00)
T19EE4 000:644.980 - 0.051ms returns 0
T19EE4 000:645.013 JLINK_WriteReg(R1, 0x00000200)
T19EE4 000:645.043 - 0.045ms returns 0
T19EE4 000:645.075 JLINK_WriteReg(R2, 0x2000014C)
T19EE4 000:645.104 - 0.043ms returns 0
T19EE4 000:645.135 JLINK_WriteReg(R3, 0x00000000)
T19EE4 000:645.164 - 0.043ms returns 0
T19EE4 000:645.194 JLINK_WriteReg(R4, 0x00000000)
T19EE4 000:645.223 - 0.043ms returns 0
T19EE4 000:645.254 JLINK_WriteReg(R5, 0x00000000)
T19EE4 000:645.299 - 0.053ms returns 0
T19EE4 000:645.317 JLINK_WriteReg(R6, 0x00000000)
T19EE4 000:645.331 - 0.020ms returns 0
T19EE4 000:645.345 JLINK_WriteReg(R7, 0x00000000)
T19EE4 000:645.359 - 0.019ms returns 0
T19EE4 000:645.372 JLINK_WriteReg(R8, 0x00000000)
T19EE4 000:645.386 - 0.019ms returns 0
T19EE4 000:645.400 JLINK_WriteReg(R9, 0x20000148)
T19EE4 000:645.413 - 0.019ms returns 0
T19EE4 000:645.426 JLINK_WriteReg(R10, 0x00000000)
T19EE4 000:645.440 - 0.019ms returns 0
T19EE4 000:645.453 JLINK_WriteReg(R11, 0x00000000)
T19EE4 000:645.468 - 0.020ms returns 0
T19EE4 000:645.481 JLINK_WriteReg(R12, 0x00000000)
T19EE4 000:645.495 - 0.019ms returns 0
T19EE4 000:645.509 JLINK_WriteReg(R13 (SP), 0x20001000)
T19EE4 000:645.523 - 0.020ms returns 0
T19EE4 000:645.536 JLINK_WriteReg(R14, 0x20000001)
T19EE4 000:645.550 - 0.019ms returns 0
T19EE4 000:645.563 JLINK_WriteReg(R15 (PC), 0x200000D8)
T19EE4 000:645.577 - 0.019ms returns 0
T19EE4 000:645.590 JLINK_WriteReg(XPSR, 0x01000000)
T19EE4 000:645.604 - 0.019ms returns 0
T19EE4 000:645.618 JLINK_WriteReg(MSP, 0x20001000)
T19EE4 000:645.631 - 0.019ms returns 0
T19EE4 000:645.645 JLINK_WriteReg(PSP, 0x20001000)
T19EE4 000:645.658 - 0.019ms returns 0
T19EE4 000:645.671 JLINK_WriteReg(CFBP, 0x00000000)
T19EE4 000:645.684 - 0.019ms returns 0
T19EE4 000:645.701 JLINK_SetBPEx(Addr = 0x20000000, Type = 0xFFFFFFF2)
T19EE4 000:645.713 - 0.018ms returns 0x0000000A
T19EE4 000:645.726 JLINK_Go()
T19EE4 000:645.743   CPU_ReadMem(4 bytes @ 0xE0001000)
T19EE4 000:646.083   CPU_WriteMem(4 bytes @ 0xE0001000)
T19EE4 000:649.720 - 4.033ms
T19EE4 000:649.778 JLINK_IsHalted()
T19EE4 000:650.229 - 0.469ms returns FALSE
T19EE4 000:650.257 JLINK_HasError()
T19EE4 000:651.476 JLINK_IsHalted()
T19EE4 000:652.189 - 0.720ms returns FALSE
T19EE4 000:652.203 JLINK_HasError()
T19EE4 000:653.465 JLINK_IsHalted()
T19EE4 000:653.879 - 0.419ms returns FALSE
T19EE4 000:653.891 JLINK_HasError()
T19EE4 000:655.576 JLINK_IsHalted()
T19EE4 000:658.977   CPU_ReadMem(2 bytes @ 0x20000000)
T19EE4 000:659.309 - 3.742ms returns TRUE
T19EE4 000:659.326 JLINK_ReadReg(R15 (PC))
T19EE4 000:659.341 - 0.020ms returns 0x20000000
T19EE4 000:659.355 JLINK_ClrBPEx(BPHandle = 0x0000000A)
T19EE4 000:659.368 - 0.019ms returns 0x00
T19EE4 000:659.381 JLINK_ReadReg(R0)
T19EE4 000:659.394 - 0.018ms returns 0x00000000
T19EE4 000:660.488 JLINK_WriteMem(0x2000014C, 0x200 Bytes, ...)
T19EE4 000:660.544   Data:  3E 43 C9 07 69 40 00 2B 08 D0 93 40 06 D3 00 22 ...
T19EE4 000:660.609   CPU_WriteMem(512 bytes @ 0x2000014C)
T19EE4 000:664.862 - 5.154ms returns 0x200
T19EE4 000:665.650 JLINK_HasError()
T19EE4 000:665.661 JLINK_WriteReg(R0, 0x00000C00)
T19EE4 000:665.673 - 0.016ms returns 0
T19EE4 000:665.683 JLINK_WriteReg(R1, 0x00000200)
T19EE4 000:665.692 - 0.013ms returns 0
T19EE4 000:665.702 JLINK_WriteReg(R2, 0x2000014C)
T19EE4 000:665.711 - 0.013ms returns 0
T19EE4 000:665.720 JLINK_WriteReg(R3, 0x00000000)
T19EE4 000:665.729 - 0.013ms returns 0
T19EE4 000:665.739 JLINK_WriteReg(R4, 0x00000000)
T19EE4 000:665.747 - 0.013ms returns 0
T19EE4 000:665.757 JLINK_WriteReg(R5, 0x00000000)
T19EE4 000:665.766 - 0.013ms returns 0
T19EE4 000:665.775 JLINK_WriteReg(R6, 0x00000000)
T19EE4 000:665.784 - 0.013ms returns 0
T19EE4 000:665.793 JLINK_WriteReg(R7, 0x00000000)
T19EE4 000:665.802 - 0.013ms returns 0
T19EE4 000:665.811 JLINK_WriteReg(R8, 0x00000000)
T19EE4 000:665.820 - 0.013ms returns 0
T19EE4 000:665.829 JLINK_WriteReg(R9, 0x20000148)
T19EE4 000:665.838 - 0.013ms returns 0
T19EE4 000:665.847 JLINK_WriteReg(R10, 0x00000000)
T19EE4 000:665.856 - 0.013ms returns 0
T19EE4 000:665.866 JLINK_WriteReg(R11, 0x00000000)
T19EE4 000:665.875 - 0.013ms returns 0
T19EE4 000:665.884 JLINK_WriteReg(R12, 0x00000000)
T19EE4 000:665.893 - 0.013ms returns 0
T19EE4 000:665.903 JLINK_WriteReg(R13 (SP), 0x20001000)
T19EE4 000:665.912 - 0.013ms returns 0
T19EE4 000:665.922 JLINK_WriteReg(R14, 0x20000001)
T19EE4 000:665.931 - 0.013ms returns 0
T19EE4 000:665.940 JLINK_WriteReg(R15 (PC), 0x200000D8)
T19EE4 000:665.950 - 0.013ms returns 0
T19EE4 000:665.959 JLINK_WriteReg(XPSR, 0x01000000)
T19EE4 000:665.968 - 0.013ms returns 0
T19EE4 000:665.978 JLINK_WriteReg(MSP, 0x20001000)
T19EE4 000:665.987 - 0.013ms returns 0
T19EE4 000:666.001 JLINK_WriteReg(PSP, 0x20001000)
T19EE4 000:666.010 - 0.013ms returns 0
T19EE4 000:666.020 JLINK_WriteReg(CFBP, 0x00000000)
T19EE4 000:666.029 - 0.013ms returns 0
T19EE4 000:666.038 JLINK_SetBPEx(Addr = 0x20000000, Type = 0xFFFFFFF2)
T19EE4 000:666.048 - 0.014ms returns 0x0000000B
T19EE4 000:666.058 JLINK_Go()
T19EE4 000:666.071   CPU_ReadMem(4 bytes @ 0xE0001000)
T19EE4 000:666.571   CPU_WriteMem(4 bytes @ 0xE0001000)
T19EE4 000:670.245 - 4.193ms
T19EE4 000:670.256 JLINK_IsHalted()
T19EE4 000:670.606 - 0.355ms returns FALSE
T19EE4 000:670.616 JLINK_HasError()
T19EE4 000:673.465 JLINK_IsHalted()
T19EE4 000:673.828 - 0.366ms returns FALSE
T19EE4 000:673.837 JLINK_HasError()
T19EE4 000:675.488 JLINK_IsHalted()
T19EE4 000:675.961 - 0.492ms returns FALSE
T19EE4 000:675.996 JLINK_HasError()
T19EE4 000:677.468 JLINK_IsHalted()
T19EE4 000:680.923   CPU_ReadMem(2 bytes @ 0x20000000)
T19EE4 000:681.227 - 3.764ms returns TRUE
T19EE4 000:681.238 JLINK_ReadReg(R15 (PC))
T19EE4 000:681.248 - 0.013ms returns 0x20000000
T19EE4 000:681.257 JLINK_ClrBPEx(BPHandle = 0x0000000B)
T19EE4 000:681.265 - 0.012ms returns 0x00
T19EE4 000:681.274 JLINK_ReadReg(R0)
T19EE4 000:681.282 - 0.012ms returns 0x00000000
T19EE4 000:681.519 JLINK_WriteMem(0x2000014C, 0x200 Bytes, ...)
T19EE4 000:681.530   Data:  2B D0 0C 0C 01 D1 09 04 10 3B 0C 0E 01 D1 09 02 ...
T19EE4 000:682.405   CPU_WriteMem(512 bytes @ 0x2000014C)
T19EE4 000:686.622 - 5.117ms returns 0x200
T19EE4 000:686.643 JLINK_HasError()
T19EE4 000:686.652 JLINK_WriteReg(R0, 0x00000E00)
T19EE4 000:686.661 - 0.013ms returns 0
T19EE4 000:686.670 JLINK_WriteReg(R1, 0x00000200)
T19EE4 000:686.677 - 0.011ms returns 0
T19EE4 000:686.686 JLINK_WriteReg(R2, 0x2000014C)
T19EE4 000:686.693 - 0.011ms returns 0
T19EE4 000:686.701 JLINK_WriteReg(R3, 0x00000000)
T19EE4 000:686.709 - 0.011ms returns 0
T19EE4 000:686.717 JLINK_WriteReg(R4, 0x00000000)
T19EE4 000:686.724 - 0.011ms returns 0
T19EE4 000:686.732 JLINK_WriteReg(R5, 0x00000000)
T19EE4 000:686.740 - 0.011ms returns 0
T19EE4 000:686.748 JLINK_WriteReg(R6, 0x00000000)
T19EE4 000:686.755 - 0.011ms returns 0
T19EE4 000:686.763 JLINK_WriteReg(R7, 0x00000000)
T19EE4 000:686.770 - 0.011ms returns 0
T19EE4 000:686.778 JLINK_WriteReg(R8, 0x00000000)
T19EE4 000:686.788 - 0.015ms returns 0
T19EE4 000:686.798 JLINK_WriteReg(R9, 0x20000148)
T19EE4 000:686.805 - 0.015ms returns 0
T19EE4 000:686.818 JLINK_WriteReg(R10, 0x00000000)
T19EE4 000:686.825 - 0.011ms returns 0
T19EE4 000:686.833 JLINK_WriteReg(R11, 0x00000000)
T19EE4 000:686.841 - 0.011ms returns 0
T19EE4 000:686.849 JLINK_WriteReg(R12, 0x00000000)
T19EE4 000:686.856 - 0.011ms returns 0
T19EE4 000:686.864 JLINK_WriteReg(R13 (SP), 0x20001000)
T19EE4 000:686.872 - 0.012ms returns 0
T19EE4 000:686.881 JLINK_WriteReg(R14, 0x20000001)
T19EE4 000:686.889 - 0.012ms returns 0
T19EE4 000:686.897 JLINK_WriteReg(R15 (PC), 0x200000D8)
T19EE4 000:686.905 - 0.011ms returns 0
T19EE4 000:686.913 JLINK_WriteReg(XPSR, 0x01000000)
T19EE4 000:686.921 - 0.011ms returns 0
T19EE4 000:686.929 JLINK_WriteReg(MSP, 0x20001000)
T19EE4 000:686.936 - 0.011ms returns 0
T19EE4 000:686.944 JLINK_WriteReg(PSP, 0x20001000)
T19EE4 000:686.952 - 0.011ms returns 0
T19EE4 000:686.960 JLINK_WriteReg(CFBP, 0x00000000)
T19EE4 000:686.968 - 0.011ms returns 0
T19EE4 000:686.976 JLINK_SetBPEx(Addr = 0x20000000, Type = 0xFFFFFFF2)
T19EE4 000:686.984 - 0.012ms returns 0x0000000C
T19EE4 000:686.993 JLINK_Go()
T19EE4 000:687.004   CPU_ReadMem(4 bytes @ 0xE0001000)
T19EE4 000:687.329   CPU_WriteMem(4 bytes @ 0xE0001000)
T19EE4 000:690.854 - 3.866ms
T19EE4 000:690.864 JLINK_IsHalted()
T19EE4 000:691.187 - 0.328ms returns FALSE
T19EE4 000:691.198 JLINK_HasError()
T19EE4 000:692.472 JLINK_IsHalted()
T19EE4 000:692.829 - 0.365ms returns FALSE
T19EE4 000:692.845 JLINK_HasError()
T19EE4 000:697.483 JLINK_IsHalted()
T19EE4 000:700.798   CPU_ReadMem(2 bytes @ 0x20000000)
T19EE4 000:701.101 - 3.623ms returns TRUE
T19EE4 000:701.111 JLINK_ReadReg(R15 (PC))
T19EE4 000:701.120 - 0.011ms returns 0x20000000
T19EE4 000:701.127 JLINK_ClrBPEx(BPHandle = 0x0000000C)
T19EE4 000:701.134 - 0.010ms returns 0x00
T19EE4 000:701.142 JLINK_ReadReg(R0)
T19EE4 000:701.149 - 0.010ms returns 0x00000000
T19EE4 000:701.343 JLINK_WriteMem(0x2000014C, 0x200 Bytes, ...)
T19EE4 000:701.352   Data:  0A 43 20 46 03 99 D8 40 09 14 73 18 19 05 51 18 ...
T19EE4 000:701.366   CPU_WriteMem(512 bytes @ 0x2000014C)
T19EE4 000:705.419 - 4.118ms returns 0x200
T19EE4 000:705.512 JLINK_HasError()
T19EE4 000:705.544 JLINK_WriteReg(R0, 0x00001000)
T19EE4 000:705.552 - 0.011ms returns 0
T19EE4 000:705.559 JLINK_WriteReg(R1, 0x00000200)
T19EE4 000:705.566 - 0.010ms returns 0
T19EE4 000:705.574 JLINK_WriteReg(R2, 0x2000014C)
T19EE4 000:705.581 - 0.010ms returns 0
T19EE4 000:705.588 JLINK_WriteReg(R3, 0x00000000)
T19EE4 000:705.595 - 0.010ms returns 0
T19EE4 000:705.602 JLINK_WriteReg(R4, 0x00000000)
T19EE4 000:705.609 - 0.010ms returns 0
T19EE4 000:705.616 JLINK_WriteReg(R5, 0x00000000)
T19EE4 000:705.622 - 0.010ms returns 0
T19EE4 000:705.630 JLINK_WriteReg(R6, 0x00000000)
T19EE4 000:705.636 - 0.010ms returns 0
T19EE4 000:705.644 JLINK_WriteReg(R7, 0x00000000)
T19EE4 000:705.650 - 0.010ms returns 0
T19EE4 000:705.658 JLINK_WriteReg(R8, 0x00000000)
T19EE4 000:705.665 - 0.010ms returns 0
T19EE4 000:705.672 JLINK_WriteReg(R9, 0x20000148)
T19EE4 000:705.678 - 0.010ms returns 0
T19EE4 000:705.686 JLINK_WriteReg(R10, 0x00000000)
T19EE4 000:705.692 - 0.010ms returns 0
T19EE4 000:705.699 JLINK_WriteReg(R11, 0x00000000)
T19EE4 000:705.706 - 0.010ms returns 0
T19EE4 000:705.713 JLINK_WriteReg(R12, 0x00000000)
T19EE4 000:705.720 - 0.010ms returns 0
T19EE4 000:705.727 JLINK_WriteReg(R13 (SP), 0x20001000)
T19EE4 000:705.735 - 0.010ms returns 0
T19EE4 000:705.742 JLINK_WriteReg(R14, 0x20000001)
T19EE4 000:705.749 - 0.010ms returns 0
T19EE4 000:705.756 JLINK_WriteReg(R15 (PC), 0x200000D8)
T19EE4 000:705.763 - 0.010ms returns 0
T19EE4 000:705.770 JLINK_WriteReg(XPSR, 0x01000000)
T19EE4 000:705.777 - 0.010ms returns 0
T19EE4 000:705.784 JLINK_WriteReg(MSP, 0x20001000)
T19EE4 000:705.791 - 0.010ms returns 0
T19EE4 000:705.798 JLINK_WriteReg(PSP, 0x20001000)
T19EE4 000:705.805 - 0.010ms returns 0
T19EE4 000:705.812 JLINK_WriteReg(CFBP, 0x00000000)
T19EE4 000:705.821 - 0.013ms returns 0
T19EE4 000:705.829 JLINK_SetBPEx(Addr = 0x20000000, Type = 0xFFFFFFF2)
T19EE4 000:705.837 - 0.010ms returns 0x0000000D
T19EE4 000:705.844 JLINK_Go()
T19EE4 000:705.854   CPU_ReadMem(4 bytes @ 0xE0001000)
T19EE4 000:706.161   CPU_WriteMem(4 bytes @ 0xE0001000)
T19EE4 000:709.605 - 3.767ms
T19EE4 000:709.618 JLINK_IsHalted()
T19EE4 000:710.002 - 0.388ms returns FALSE
T19EE4 000:710.012 JLINK_HasError()
T19EE4 000:712.481 JLINK_IsHalted()
T19EE4 000:712.903 - 0.426ms returns FALSE
T19EE4 000:712.912 JLINK_HasError()
T19EE4 000:714.556 JLINK_IsHalted()
T19EE4 000:715.261 - 0.711ms returns FALSE
T19EE4 000:715.273 JLINK_HasError()
T19EE4 000:716.466 JLINK_IsHalted()
T19EE4 000:719.845   CPU_ReadMem(2 bytes @ 0x20000000)
T19EE4 000:720.201 - 3.739ms returns TRUE
T19EE4 000:720.210 JLINK_ReadReg(R15 (PC))
T19EE4 000:720.218 - 0.011ms returns 0x20000000
T19EE4 000:720.226 JLINK_ClrBPEx(BPHandle = 0x0000000D)
T19EE4 000:720.233 - 0.010ms returns 0x00
T19EE4 000:720.240 JLINK_ReadReg(R0)
T19EE4 000:720.247 - 0.010ms returns 0x00000000
T19EE4 000:720.441 JLINK_WriteMem(0x2000014C, 0x200 Bytes, ...)
T19EE4 000:720.451   Data:  C8 42 01 D5 90 10 F0 BD FF 20 C0 05 F0 BD 00 2F ...
T19EE4 000:720.465   CPU_WriteMem(512 bytes @ 0x2000014C)
T19EE4 000:724.565 - 4.151ms returns 0x200
T19EE4 000:724.606 JLINK_HasError()
T19EE4 000:724.616 JLINK_WriteReg(R0, 0x00001200)
T19EE4 000:724.626 - 0.013ms returns 0
T19EE4 000:724.634 JLINK_WriteReg(R1, 0x00000200)
T19EE4 000:724.642 - 0.011ms returns 0
T19EE4 000:724.649 JLINK_WriteReg(R2, 0x2000014C)
T19EE4 000:724.657 - 0.010ms returns 0
T19EE4 000:724.665 JLINK_WriteReg(R3, 0x00000000)
T19EE4 000:724.672 - 0.010ms returns 0
T19EE4 000:724.680 JLINK_WriteReg(R4, 0x00000000)
T19EE4 000:724.687 - 0.010ms returns 0
T19EE4 000:724.695 JLINK_WriteReg(R5, 0x00000000)
